T42FC 000:005.030   SEGGER J-Link V9.10 Log File
T42FC 000:005.154   DLL Compiled: Jan 14 2026 11:30:41
T42FC 000:005.165   Logging started @ 2026-01-21 07:53
T42FC 000:005.168   Process: D:\keil5\UV4\UV4.exe
T42FC 000:005.206 - 5.198ms 
T42FC 000:005.214 JLINK_SetWarnOutHandler(...)
T42FC 000:005.217 - 0.004ms 
T42FC 000:005.221 JLINK_OpenEx(...)
T42FC 000:011.322   Firmware: J-Link ARM-OB STM32 compiled Aug 22 2012 19:52:04
T42FC 000:012.451   Firmware: J-Link ARM-OB STM32 compiled Aug 22 2012 19:52:04
T42FC 000:014.559   Hardware: V7.00
T42FC 000:014.567   S/N: 20090928
T42FC 000:014.571   OEM: SEGGER
T42FC 000:014.575   Feature(s): JFlash, RDI, GDB, FlashDL, FlashBP
T42FC 000:014.924   Bootloader: (FW returned invalid version)
T42FC 000:016.197   TELNET listener socket opened on port 19021
T42FC 000:016.522   WEBSRV WEBSRV_Init(): Starting webserver thread(s)
T42FC 000:016.602   WEBSRV Failed to put socket into listener state (port 19080)
T42FC 000:016.742   WEBSRV Webserver running on local port 19081
T42FC 000:016.888   Looking for J-Link GUI Server exe at: D:\keil5\ARM\Segger\JLinkGUIServer.exe
T42FC 000:016.996   Looking for J-Link GUI Server exe at: D:\Program Files\SEGGER\JLink\JLinkGUIServer.exe
T42FC 000:017.042   Forking J-Link GUI Server: D:\Program Files\SEGGER\JLink\JLinkGUIServer.exe
T42FC 000:021.245   J-Link GUI Server info: "J-Link GUI server V9.10 "
T42FC 000:021.492 - 16.268ms returns "O.K."
T42FC 000:021.555 JLINK_GetEmuCaps()
T42FC 000:021.562 - 0.005ms returns 0x88EA5833
T42FC 000:021.566 JLINK_TIF_GetAvailable(...)
T42FC 000:021.861 - 0.294ms 
T42FC 000:021.904 JLINK_SetErrorOutHandler(...)
T42FC 000:021.909 - 0.005ms 
T42FC 000:021.936 JLINK_ExecCommand("ProjectFile = "D:\code_D\stm32_code_MX\gitcode\wheeled-leg-robot\firmware\MDK-ARM\JLinkSettings.ini"", ...). 
T42FC 000:033.360   Ref file found at: D:\keil5\ARM\Segger\JLinkDevices.ref
T42FC 000:033.457   REF file references invalid XML file: D:\Program Files\SEGGER\JLink\JLinkDevices.xml
T42FC 000:034.757 - 12.821ms returns 0x00
T42FC 000:039.515 JLINK_ExecCommand("Device = STM32F407VETx", ...). 
T42FC 000:044.119   Device "STM32F407VE" selected.
T42FC 000:044.587 - 5.055ms returns 0x00
T42FC 000:044.601 JLINK_ExecCommand("DisableConnectionTimeout", ...). 
T42FC 000:044.616   ERROR: Unknown command
T42FC 000:044.621 - 0.014ms returns 0x01
T42FC 000:044.625 JLINK_GetHardwareVersion()
T42FC 000:044.630 - 0.003ms returns 70000
T42FC 000:044.634 JLINK_GetDLLVersion()
T42FC 000:044.637 - 0.002ms returns 91000
T42FC 000:044.640 JLINK_GetOEMString(...)
T42FC 000:044.644 JLINK_GetFirmwareString(...)
T42FC 000:044.647 - 0.003ms 
T42FC 000:053.611 JLINK_GetDLLVersion()
T42FC 000:053.627 - 0.015ms returns 91000
T42FC 000:053.631 JLINK_GetCompileDateTime()
T42FC 000:053.634 - 0.002ms 
T42FC 000:056.208 JLINK_GetFirmwareString(...)
T42FC 000:056.220 - 0.011ms 
T42FC 000:059.921 JLINK_GetHardwareVersion()
T42FC 000:059.935 - 0.013ms returns 70000
T42FC 000:062.546 JLINK_GetSN()
T42FC 000:062.558 - 0.011ms returns 20090928
T42FC 000:065.350 JLINK_GetOEMString(...)
T42FC 000:071.739 JLINK_TIF_Select(JLINKARM_TIF_SWD)
T42FC 000:072.549 - 0.810ms returns 0x00
T42FC 000:072.599 JLINK_HasError()
T42FC 000:072.610 JLINK_SetSpeed(5000)
T42FC 000:072.737 - 0.128ms 
T42FC 000:072.757 JLINK_GetId()
T42FC 000:075.752   InitTarget() start
T42FC 000:075.764    J-Link Script File: Executing InitTarget()
T42FC 000:079.668   SWD selected. Executing JTAG -> SWD switching sequence.
T42FC 000:088.049   DAP initialized successfully.
T42FC 000:103.768   InitTarget() end - Took 24.4ms
T42FC 000:108.792   Found SW-DP with ID 0x2BA01477
T42FC 000:115.105   Old FW that does not support reading DPIDR via DAP jobs
T42FC 000:123.850   DPv0 detected
T42FC 000:126.634   CoreSight SoC-400 or earlier
T42FC 000:130.066   Scanning AP map to find all available APs
T42FC 000:136.282   AP[1]: Stopped AP scan as end of AP map has been reached
T42FC 000:139.007   AP[0]: AHB-AP (IDR: 0x24770011, ADDR: 0x00000000)
T42FC 000:142.361   Iterating through AP map to find AHB-AP to use
T42FC 000:152.140   AP[0]: Core found
T42FC 000:155.144   AP[0]: AHB-AP ROM base: 0xE00FF000
T42FC 000:160.892   CPUID register: 0x410FC241. Implementer code: 0x41 (ARM)
T42FC 000:163.859   Found Cortex-M4 r0p1, Little endian.
T42FC 000:164.460   -- Max. mem block: 0x00002C08
T42FC 000:165.008   CPU_ReadMem(4 bytes @ 0xE000EDF0)
T42FC 000:165.550   CPU_ReadMem(4 bytes @ 0xE0002000)
T42FC 000:169.056   FPUnit: 6 code (BP) slots and 2 literal slots
T42FC 000:169.069   CPU_ReadMem(4 bytes @ 0xE000EDFC)
T42FC 000:169.733   CPU_ReadMem(4 bytes @ 0xE0001000)
T42FC 000:170.327   CPU_WriteMem(4 bytes @ 0xE0001000)
T42FC 000:170.950   CPU_ReadMem(4 bytes @ 0xE000ED88)
T42FC 000:171.532   CPU_WriteMem(4 bytes @ 0xE000ED88)
T42FC 000:172.195   CPU_ReadMem(4 bytes @ 0xE000ED88)
T42FC 000:172.814   CPU_WriteMem(4 bytes @ 0xE000ED88)
T42FC 000:178.344   CoreSight components:
T42FC 000:181.534   ROMTbl[0] @ E00FF000
T42FC 000:181.556   CPU_ReadMem(64 bytes @ 0xE00FF000)
T42FC 000:182.864   CPU_ReadMem(32 bytes @ 0xE000EFE0)
T42FC 000:186.586   [0][0]: E000E000 CID B105E00D PID 000BB00C SCS-M7
T42FC 000:186.601   CPU_ReadMem(32 bytes @ 0xE0001FE0)
T42FC 000:191.205   [0][1]: E0001000 CID B105E00D PID 003BB002 DWT
T42FC 000:191.224   CPU_ReadMem(32 bytes @ 0xE0002FE0)
T42FC 000:195.081   [0][2]: E0002000 CID B105E00D PID 002BB003 FPB
T42FC 000:195.098   CPU_ReadMem(32 bytes @ 0xE0000FE0)
T42FC 000:198.851   [0][3]: E0000000 CID B105E00D PID 003BB001 ITM
T42FC 000:198.865   CPU_ReadMem(32 bytes @ 0xE0040FE0)
T42FC 000:203.218   [0][4]: E0040000 CID B105900D PID 000BB9A1 TPIU
T42FC 000:203.236   CPU_ReadMem(32 bytes @ 0xE0041FE0)
T42FC 000:207.365   [0][5]: E0041000 CID B105900D PID 000BB925 ETM
T42FC 000:207.918 - 135.160ms returns 0x2BA01477
T42FC 000:207.950 JLINK_GetDLLVersion()
T42FC 000:207.953 - 0.003ms returns 91000
T42FC 000:207.960 JLINK_CORE_GetFound()
T42FC 000:207.964 - 0.003ms returns 0xE0000FF
T42FC 000:207.974 JLINK_GetDebugInfo(0x100 = JLINKARM_ROM_TABLE_ADDR_INDEX)
T42FC 000:207.977   Value=0xE00FF000
T42FC 000:207.981 - 0.007ms returns 0
T42FC 000:210.810 JLINK_GetDebugInfo(0x100 = JLINKARM_ROM_TABLE_ADDR_INDEX)
T42FC 000:210.826   Value=0xE00FF000
T42FC 000:210.830 - 0.021ms returns 0
T42FC 000:210.835 JLINK_GetDebugInfo(0x101 = JLINKARM_DEBUG_INFO_ETM_ADDR_INDEX)
T42FC 000:210.838   Value=0xE0041000
T42FC 000:210.842 - 0.007ms returns 0
T42FC 000:210.855 JLINK_ReadMemEx(0xE0041FD0, 0x20 Bytes, Flags = 0x02000004)
T42FC 000:210.872   CPU_ReadMem(32 bytes @ 0xE0041FD0)
T42FC 000:254.125   Data:  04 00 00 00 00 00 00 00 00 00 00 00 00 00 00 00 ...
T42FC 000:254.149 - 43.293ms returns 32 (0x20)
T42FC 000:254.208 JLINK_GetDebugInfo(0x102 = JLINKARM_DEBUG_INFO_MTB_ADDR_INDEX)
T42FC 000:254.213   Value=0x00000000
T42FC 000:254.218 - 0.010ms returns 0
T42FC 000:254.222 JLINK_GetDebugInfo(0x103 = JLINKARM_DEBUG_INFO_TPIU_ADDR_INDEX)
T42FC 000:254.226   Value=0xE0040000
T42FC 000:254.230 - 0.007ms returns 0
T42FC 000:254.237 JLINK_GetDebugInfo(0x104 = JLINKARM_DEBUG_INFO_ITM_ADDR_INDEX)
T42FC 000:254.240   Value=0xE0000000
T42FC 000:254.244 - 0.007ms returns 0
T42FC 000:254.248 JLINK_GetDebugInfo(0x105 = JLINKARM_DEBUG_INFO_DWT_ADDR_INDEX)
T42FC 000:254.250   Value=0xE0001000
T42FC 000:254.255 - 0.007ms returns 0
T42FC 000:254.258 JLINK_GetDebugInfo(0x106 = JLINKARM_DEBUG_INFO_FPB_ADDR_INDEX)
T42FC 000:254.261   Value=0xE0002000
T42FC 000:254.265 - 0.007ms returns 0
T42FC 000:254.269 JLINK_GetDebugInfo(0x107 = JLINKARM_DEBUG_INFO_NVIC_ADDR_INDEX)
T42FC 000:254.272   Value=0xE000E000
T42FC 000:254.276 - 0.007ms returns 0
T42FC 000:254.279 JLINK_GetDebugInfo(0x10C = JLINKARM_DEBUG_INFO_DBG_ADDR_INDEX)
T42FC 000:254.282   Value=0xE000EDF0
T42FC 000:254.287 - 0.007ms returns 0
T42FC 000:254.291 JLINK_ReadMemU32(0xE000EF40, 0x1 Items)
T42FC 000:254.299   CPU_ReadMem(4 bytes @ 0xE000EF40)
T42FC 000:254.823   Data:  21 00 11 10
T42FC 000:254.836 - 0.545ms returns 1 (0x1)
T42FC 000:254.866 JLINK_ReadMemU32(0xE000EF44, 0x1 Items)
T42FC 000:254.875   CPU_ReadMem(4 bytes @ 0xE000EF44)
T42FC 000:255.537   Data:  11 00 00 11
T42FC 000:255.543 - 0.676ms returns 1 (0x1)
T42FC 000:255.561 JLINK_ReadMemU32(0xE000ED00, 0x1 Items)
T42FC 000:255.566   CPU_ReadMem(4 bytes @ 0xE000ED00)
T42FC 000:256.088   Data:  41 C2 0F 41
T42FC 000:256.101   Debug reg: CPUID
T42FC 000:256.105 - 0.543ms returns 1 (0x1)
T42FC 000:256.123 JLINK_GetDebugInfo(0x10F = JLINKARM_DEBUG_INFO_HAS_CORTEX_M_SECURITY_EXT_INDEX)
T42FC 000:256.126   Value=0x00000000
T42FC 000:256.131 - 0.008ms returns 0
T42FC 000:256.135 JLINK_HasError()
T42FC 000:256.139 JLINK_SetResetType(JLINKARM_CM3_RESET_TYPE_NORMAL)
T42FC 000:256.143 - 0.003ms returns JLINKARM_CM3_RESET_TYPE_NORMAL
T42FC 000:256.146 JLINK_Reset()
T42FC 000:256.202   JLINK_GetResetTypeDesc
T42FC 000:256.205   - 0.003ms 
T42FC 000:259.811   Reset type: NORMAL (https://kb.segger.com/J-Link_Reset_Strategies)
T42FC 000:259.847   CPU is running
T42FC 000:259.856   CPU_WriteMem(4 bytes @ 0xE000EDF0)
T42FC 000:260.558   CPU is running
T42FC 000:260.566   CPU_WriteMem(4 bytes @ 0xE000EDFC)
T42FC 000:264.089   Reset: Halt core after reset via DEMCR.VC_CORERESET.
T42FC 000:268.169   Reset: Reset device via AIRCR.SYSRESETREQ.
T42FC 000:268.185   CPU is running
T42FC 000:268.192   CPU_WriteMem(4 bytes @ 0xE000ED0C)
T42FC 000:322.431   CPU_ReadMem(4 bytes @ 0xE000EDF0)
T42FC 000:322.904   CPU_ReadMem(4 bytes @ 0xE000EDF0)
T42FC 000:327.285   CPU_WriteMem(4 bytes @ 0xE000EDFC)
T42FC 000:333.908   CPU_ReadMem(4 bytes @ 0xE000EDF0)
T42FC 000:338.074   CPU_WriteMem(4 bytes @ 0xE0002000)
T42FC 000:338.678   CPU_ReadMem(4 bytes @ 0xE000EDFC)
T42FC 000:339.386   CPU_ReadMem(4 bytes @ 0xE0001000)
T42FC 000:340.112 - 83.964ms 
T42FC 000:340.181 JLINK_Halt()
T42FC 000:340.189 - 0.007ms returns 0x00
T42FC 000:340.199 JLINK_ReadMemU32(0xE000EDF0, 0x1 Items)
T42FC 000:340.211   CPU_ReadMem(4 bytes @ 0xE000EDF0)
T42FC 000:340.801   Data:  03 00 03 00
T42FC 000:340.823   Debug reg: DHCSR
T42FC 000:340.832 - 0.633ms returns 1 (0x1)
T42FC 000:340.896 JLINK_WriteU32(0xE000EDF0, 0xA05F0003)
T42FC 000:340.903   Debug reg: DHCSR
T42FC 000:341.419   CPU_WriteMem(4 bytes @ 0xE000EDF0)
T42FC 000:386.575 - 45.677ms returns 0 (0x00000000)
T42FC 000:386.648 JLINK_WriteU32(0xE000EDFC, 0x01000000)
T42FC 000:386.653   Debug reg: DEMCR
T42FC 000:386.666   CPU_WriteMem(4 bytes @ 0xE000EDFC)
T42FC 000:387.172 - 0.523ms returns 0 (0x00000000)
T42FC 000:400.152 JLINK_GetHWStatus(...)
T42FC 000:400.472 - 0.324ms returns 0
T42FC 000:412.537 JLINK_GetNumBPUnits(Type = 0xFFFFFF00)
T42FC 000:412.556 - 0.018ms returns 0x06
T42FC 000:412.560 JLINK_GetNumBPUnits(Type = 0xF0)
T42FC 000:412.563 - 0.003ms returns 0x2000
T42FC 000:412.567 JLINK_GetNumWPUnits()
T42FC 000:412.570 - 0.003ms returns 4
T42FC 000:423.541 JLINK_GetSpeed()
T42FC 000:423.558 - 0.016ms returns 4000
T42FC 000:429.057 JLINK_ReadMemU32(0xE000E004, 0x1 Items)
T42FC 000:429.081   CPU_ReadMem(4 bytes @ 0xE000E004)
T42FC 000:429.757   Data:  02 00 00 00
T42FC 000:429.771 - 0.713ms returns 1 (0x1)
T42FC 000:429.795 JLINK_ReadMemU32(0xE000E004, 0x1 Items)
T42FC 000:429.801   CPU_ReadMem(4 bytes @ 0xE000E004)
T42FC 000:430.320   Data:  02 00 00 00
T42FC 000:430.333 - 0.537ms returns 1 (0x1)
T42FC 000:430.376 JLINK_WriteMemEx(0xE0001000, 0x0000001C Bytes, Flags = 0x02000004)
T42FC 000:430.380   Data:  01 00 00 00 00 00 00 00 00 00 00 00 00 00 00 00 ...
T42FC 000:430.391   CPU_WriteMem(28 bytes @ 0xE0001000)
T42FC 000:431.367 - 0.979ms returns 0x1C
T42FC 000:431.391 JLINK_Halt()
T42FC 000:431.395 - 0.003ms returns 0x00
T42FC 000:431.398 JLINK_IsHalted()
T42FC 000:431.402 - 0.003ms returns TRUE
T42FC 000:433.959 JLINK_WriteMem(0x20000000, 0x184 Bytes, ...)
T42FC 000:433.968   Data:  00 BE 0A E0 0D 78 2D 06 68 40 08 24 40 00 00 D3 ...
T42FC 000:434.292   CPU_WriteMem(388 bytes @ 0x20000000)
T42FC 000:439.574 - 5.614ms returns 0x184
T42FC 000:439.647 JLINK_HasError()
T42FC 000:439.653 JLINK_WriteReg(R0, 0x08000000)
T42FC 000:439.658 - 0.004ms returns 0
T42FC 000:439.666 JLINK_WriteReg(R1, 0x017D7840)
T42FC 000:439.671 - 0.004ms returns 0
T42FC 000:439.674 JLINK_WriteReg(R2, 0x00000001)
T42FC 000:439.677 - 0.003ms returns 0
T42FC 000:439.681 JLINK_WriteReg(R3, 0x00000000)
T42FC 000:439.683 - 0.002ms returns 0
T42FC 000:439.687 JLINK_WriteReg(R4, 0x00000000)
T42FC 000:439.690 - 0.003ms returns 0
T42FC 000:439.694 JLINK_WriteReg(R5, 0x00000000)
T42FC 000:439.697 - 0.002ms returns 0
T42FC 000:439.700 JLINK_WriteReg(R6, 0x00000000)
T42FC 000:439.703 - 0.002ms returns 0
T42FC 000:439.706 JLINK_WriteReg(R7, 0x00000000)
T42FC 000:439.709 - 0.002ms returns 0
T42FC 000:439.724 JLINK_WriteReg(R8, 0x00000000)
T42FC 000:439.727 - 0.014ms returns 0
T42FC 000:439.731 JLINK_WriteReg(R9, 0x20000180)
T42FC 000:439.733 - 0.002ms returns 0
T42FC 000:439.737 JLINK_WriteReg(R10, 0x00000000)
T42FC 000:439.740 - 0.003ms returns 0
T42FC 000:439.743 JLINK_WriteReg(R11, 0x00000000)
T42FC 000:439.746 - 0.003ms returns 0
T42FC 000:439.750 JLINK_WriteReg(R12, 0x00000000)
T42FC 000:439.753 - 0.003ms returns 0
T42FC 000:439.756 JLINK_WriteReg(R13 (SP), 0x20001000)
T42FC 000:439.760 - 0.003ms returns 0
T42FC 000:439.763 JLINK_WriteReg(R14, 0x20000001)
T42FC 000:439.766 - 0.002ms returns 0
T42FC 000:439.771 JLINK_WriteReg(R15 (PC), 0x20000054)
T42FC 000:439.774 - 0.004ms returns 0
T42FC 000:439.778 JLINK_WriteReg(XPSR, 0x01000000)
T42FC 000:439.781 - 0.003ms returns 0
T42FC 000:439.784 JLINK_WriteReg(MSP, 0x20001000)
T42FC 000:439.787 - 0.002ms returns 0
T42FC 000:439.790 JLINK_WriteReg(PSP, 0x20001000)
T42FC 000:439.793 - 0.002ms returns 0
T42FC 000:439.797 JLINK_WriteReg(CFBP, 0x00000000)
T42FC 000:439.800 - 0.002ms returns 0
T42FC 000:439.804 JLINK_SetBPEx(Addr = 0x20000000, Type = 0xFFFFFFF2)
T42FC 000:439.811   CPU_ReadMem(2 bytes @ 0x20000000)
T42FC 000:440.442 - 0.638ms returns 0x00000001
T42FC 000:440.462 JLINK_Go()
T42FC 000:440.468   CPU_WriteMem(2 bytes @ 0x20000000)
T42FC 000:441.178   CPU_ReadMem(4 bytes @ 0xE0001000)
T42FC 000:441.872   CPU_WriteMem(4 bytes @ 0xE0002008)
T42FC 000:441.885   CPU_WriteMem(4 bytes @ 0xE000200C)
T42FC 000:441.890   CPU_WriteMem(4 bytes @ 0xE0002010)
T42FC 000:441.894   CPU_WriteMem(4 bytes @ 0xE0002014)
T42FC 000:441.898   CPU_WriteMem(4 bytes @ 0xE0002018)
T42FC 000:441.903   CPU_WriteMem(4 bytes @ 0xE000201C)
T42FC 000:444.447   CPU_WriteMem(4 bytes @ 0xE0001004)
T42FC 000:454.788   Memory map 'after startup completion point' is active
T42FC 000:454.813 - 14.350ms 
T42FC 000:454.892 JLINK_IsHalted()
T42FC 000:458.488   CPU_ReadMem(2 bytes @ 0x20000000)
T42FC 000:459.172 - 4.279ms returns TRUE
T42FC 000:459.197 JLINK_ReadReg(R15 (PC))
T42FC 000:459.202 - 0.004ms returns 0x20000000
T42FC 000:459.206 JLINK_ClrBPEx(BPHandle = 0x00000001)
T42FC 000:459.209 - 0.003ms returns 0x00
T42FC 000:459.213 JLINK_ReadReg(R0)
T42FC 000:459.216 - 0.003ms returns 0x00000000
T42FC 000:459.524 JLINK_HasError()
T42FC 000:459.534 JLINK_WriteReg(R0, 0x08000000)
T42FC 000:459.539 - 0.004ms returns 0
T42FC 000:459.542 JLINK_WriteReg(R1, 0x00004000)
T42FC 000:459.545 - 0.003ms returns 0
T42FC 000:459.549 JLINK_WriteReg(R2, 0x000000FF)
T42FC 000:459.552 - 0.003ms returns 0
T42FC 000:459.555 JLINK_WriteReg(R3, 0x00000000)
T42FC 000:459.558 - 0.002ms returns 0
T42FC 000:459.561 JLINK_WriteReg(R4, 0x00000000)
T42FC 000:459.564 - 0.002ms returns 0
T42FC 000:459.568 JLINK_WriteReg(R5, 0x00000000)
T42FC 000:459.571 - 0.002ms returns 0
T42FC 000:459.574 JLINK_WriteReg(R6, 0x00000000)
T42FC 000:459.577 - 0.003ms returns 0
T42FC 000:459.581 JLINK_WriteReg(R7, 0x00000000)
T42FC 000:459.584 - 0.002ms returns 0
T42FC 000:459.587 JLINK_WriteReg(R8, 0x00000000)
T42FC 000:459.590 - 0.003ms returns 0
T42FC 000:459.594 JLINK_WriteReg(R9, 0x20000180)
T42FC 000:459.596 - 0.003ms returns 0
T42FC 000:459.600 JLINK_WriteReg(R10, 0x00000000)
T42FC 000:459.603 - 0.003ms returns 0
T42FC 000:459.606 JLINK_WriteReg(R11, 0x00000000)
T42FC 000:459.609 - 0.002ms returns 0
T42FC 000:459.613 JLINK_WriteReg(R12, 0x00000000)
T42FC 000:459.661 - 0.048ms returns 0
T42FC 000:459.667 JLINK_WriteReg(R13 (SP), 0x20001000)
T42FC 000:459.670 - 0.003ms returns 0
T42FC 000:459.674 JLINK_WriteReg(R14, 0x20000001)
T42FC 000:459.676 - 0.002ms returns 0
T42FC 000:459.680 JLINK_WriteReg(R15 (PC), 0x20000020)
T42FC 000:459.683 - 0.003ms returns 0
T42FC 000:459.686 JLINK_WriteReg(XPSR, 0x01000000)
T42FC 000:459.689 - 0.003ms returns 0
T42FC 000:459.692 JLINK_WriteReg(MSP, 0x20001000)
T42FC 000:459.695 - 0.002ms returns 0
T42FC 000:459.699 JLINK_WriteReg(PSP, 0x20001000)
T42FC 000:459.701 - 0.002ms returns 0
T42FC 000:459.705 JLINK_WriteReg(CFBP, 0x00000000)
T42FC 000:459.708 - 0.002ms returns 0
T42FC 000:459.712 JLINK_SetBPEx(Addr = 0x20000000, Type = 0xFFFFFFF2)
T42FC 000:459.715 - 0.004ms returns 0x00000002
T42FC 000:459.719 JLINK_Go()
T42FC 000:459.728   CPU_ReadMem(4 bytes @ 0xE0001000)
T42FC 000:508.168 - 48.448ms 
T42FC 000:508.227 JLINK_IsHalted()
T42FC 000:508.811 - 0.584ms returns FALSE
T42FC 000:508.839 JLINK_HasError()
T42FC 000:540.831 JLINK_IsHalted()
T42FC 000:544.561   CPU_ReadMem(2 bytes @ 0x20000000)
T42FC 000:545.201 - 4.368ms returns TRUE
T42FC 000:545.224 JLINK_ReadReg(R15 (PC))
T42FC 000:545.228 - 0.004ms returns 0x20000000
T42FC 000:545.232 JLINK_ClrBPEx(BPHandle = 0x00000002)
T42FC 000:545.236 - 0.003ms returns 0x00
T42FC 000:545.240 JLINK_ReadReg(R0)
T42FC 000:545.243 - 0.003ms returns 0x00000000
T42FC 000:545.868 JLINK_HasError()
T42FC 000:545.884 JLINK_WriteReg(R0, 0x08004000)
T42FC 000:545.888 - 0.004ms returns 0
T42FC 000:545.892 JLINK_WriteReg(R1, 0x00004000)
T42FC 000:545.895 - 0.003ms returns 0
T42FC 000:545.898 JLINK_WriteReg(R2, 0x000000FF)
T42FC 000:545.902 - 0.003ms returns 0
T42FC 000:545.905 JLINK_WriteReg(R3, 0x00000000)
T42FC 000:545.908 - 0.003ms returns 0
T42FC 000:545.912 JLINK_WriteReg(R4, 0x00000000)
T42FC 000:545.915 - 0.003ms returns 0
T42FC 000:545.918 JLINK_WriteReg(R5, 0x00000000)
T42FC 000:545.921 - 0.002ms returns 0
T42FC 000:545.924 JLINK_WriteReg(R6, 0x00000000)
T42FC 000:545.927 - 0.003ms returns 0
T42FC 000:545.931 JLINK_WriteReg(R7, 0x00000000)
T42FC 000:545.934 - 0.002ms returns 0
T42FC 000:545.937 JLINK_WriteReg(R8, 0x00000000)
T42FC 000:545.940 - 0.003ms returns 0
T42FC 000:545.944 JLINK_WriteReg(R9, 0x20000180)
T42FC 000:545.946 - 0.002ms returns 0
T42FC 000:545.950 JLINK_WriteReg(R10, 0x00000000)
T42FC 000:545.953 - 0.002ms returns 0
T42FC 000:545.956 JLINK_WriteReg(R11, 0x00000000)
T42FC 000:545.959 - 0.003ms returns 0
T42FC 000:545.963 JLINK_WriteReg(R12, 0x00000000)
T42FC 000:545.966 - 0.003ms returns 0
T42FC 000:545.969 JLINK_WriteReg(R13 (SP), 0x20001000)
T42FC 000:545.972 - 0.003ms returns 0
T42FC 000:545.976 JLINK_WriteReg(R14, 0x20000001)
T42FC 000:545.979 - 0.002ms returns 0
T42FC 000:545.982 JLINK_WriteReg(R15 (PC), 0x20000020)
T42FC 000:545.986 - 0.003ms returns 0
T42FC 000:545.989 JLINK_WriteReg(XPSR, 0x01000000)
T42FC 000:545.992 - 0.003ms returns 0
T42FC 000:545.996 JLINK_WriteReg(MSP, 0x20001000)
T42FC 000:545.998 - 0.003ms returns 0
T42FC 000:546.002 JLINK_WriteReg(PSP, 0x20001000)
T42FC 000:546.005 - 0.002ms returns 0
T42FC 000:546.008 JLINK_WriteReg(CFBP, 0x00000000)
T42FC 000:546.011 - 0.002ms returns 0
T42FC 000:546.015 JLINK_SetBPEx(Addr = 0x20000000, Type = 0xFFFFFFF2)
T42FC 000:546.019 - 0.004ms returns 0x00000003
T42FC 000:546.023 JLINK_Go()
T42FC 000:546.032   CPU_ReadMem(4 bytes @ 0xE0001000)
T42FC 000:550.031 - 4.003ms 
T42FC 000:550.070 JLINK_IsHalted()
T42FC 000:550.686 - 0.613ms returns FALSE
T42FC 000:550.707 JLINK_HasError()
T42FC 000:556.260 JLINK_IsHalted()
T42FC 000:556.921 - 0.653ms returns FALSE
T42FC 000:556.944 JLINK_HasError()
T42FC 000:558.468 JLINK_IsHalted()
T42FC 000:559.163 - 0.694ms returns FALSE
T42FC 000:559.209 JLINK_HasError()
T42FC 000:562.203 JLINK_IsHalted()
T42FC 000:562.785 - 0.581ms returns FALSE
T42FC 000:562.810 JLINK_HasError()
T42FC 000:565.298 JLINK_IsHalted()
T42FC 000:568.722   CPU_ReadMem(2 bytes @ 0x20000000)
T42FC 000:569.320 - 4.021ms returns TRUE
T42FC 000:569.361 JLINK_ReadReg(R15 (PC))
T42FC 000:569.367 - 0.006ms returns 0x20000000
T42FC 000:569.371 JLINK_ClrBPEx(BPHandle = 0x00000003)
T42FC 000:569.374 - 0.003ms returns 0x00
T42FC 000:569.378 JLINK_ReadReg(R0)
T42FC 000:569.381 - 0.002ms returns 0x00000000
T42FC 000:569.702 JLINK_HasError()
T42FC 000:569.710 JLINK_WriteReg(R0, 0x08008000)
T42FC 000:569.713 - 0.003ms returns 0
T42FC 000:569.717 JLINK_WriteReg(R1, 0x00004000)
T42FC 000:569.720 - 0.002ms returns 0
T42FC 000:569.723 JLINK_WriteReg(R2, 0x000000FF)
T42FC 000:569.726 - 0.002ms returns 0
T42FC 000:569.730 JLINK_WriteReg(R3, 0x00000000)
T42FC 000:569.733 - 0.002ms returns 0
T42FC 000:569.736 JLINK_WriteReg(R4, 0x00000000)
T42FC 000:569.739 - 0.002ms returns 0
T42FC 000:569.742 JLINK_WriteReg(R5, 0x00000000)
T42FC 000:569.745 - 0.002ms returns 0
T42FC 000:569.748 JLINK_WriteReg(R6, 0x00000000)
T42FC 000:569.751 - 0.002ms returns 0
T42FC 000:569.754 JLINK_WriteReg(R7, 0x00000000)
T42FC 000:569.757 - 0.002ms returns 0
T42FC 000:569.760 JLINK_WriteReg(R8, 0x00000000)
T42FC 000:569.763 - 0.002ms returns 0
T42FC 000:569.766 JLINK_WriteReg(R9, 0x20000180)
T42FC 000:569.769 - 0.002ms returns 0
T42FC 000:569.773 JLINK_WriteReg(R10, 0x00000000)
T42FC 000:569.775 - 0.002ms returns 0
T42FC 000:569.779 JLINK_WriteReg(R11, 0x00000000)
T42FC 000:569.782 - 0.002ms returns 0
T42FC 000:569.785 JLINK_WriteReg(R12, 0x00000000)
T42FC 000:569.788 - 0.002ms returns 0
T42FC 000:569.791 JLINK_WriteReg(R13 (SP), 0x20001000)
T42FC 000:569.794 - 0.003ms returns 0
T42FC 000:569.798 JLINK_WriteReg(R14, 0x20000001)
T42FC 000:569.800 - 0.002ms returns 0
T42FC 000:569.804 JLINK_WriteReg(R15 (PC), 0x20000020)
T42FC 000:569.807 - 0.003ms returns 0
T42FC 000:569.810 JLINK_WriteReg(XPSR, 0x01000000)
T42FC 000:569.813 - 0.003ms returns 0
T42FC 000:569.817 JLINK_WriteReg(MSP, 0x20001000)
T42FC 000:569.819 - 0.002ms returns 0
T42FC 000:569.823 JLINK_WriteReg(PSP, 0x20001000)
T42FC 000:569.826 - 0.002ms returns 0
T42FC 000:569.829 JLINK_WriteReg(CFBP, 0x00000000)
T42FC 000:569.832 - 0.002ms returns 0
T42FC 000:569.836 JLINK_SetBPEx(Addr = 0x20000000, Type = 0xFFFFFFF2)
T42FC 000:569.839 - 0.004ms returns 0x00000004
T42FC 000:569.843 JLINK_Go()
T42FC 000:569.853   CPU_ReadMem(4 bytes @ 0xE0001000)
T42FC 000:573.686 - 3.838ms 
T42FC 000:573.716 JLINK_IsHalted()
T42FC 000:577.231   CPU_ReadMem(2 bytes @ 0x20000000)
T42FC 000:577.797 - 4.076ms returns TRUE
T42FC 000:577.816 JLINK_ReadReg(R15 (PC))
T42FC 000:577.819 - 0.003ms returns 0x20000000
T42FC 000:577.823 JLINK_ClrBPEx(BPHandle = 0x00000004)
T42FC 000:577.826 - 0.003ms returns 0x00
T42FC 000:577.830 JLINK_ReadReg(R0)
T42FC 000:577.833 - 0.003ms returns 0x00000001
T42FC 000:577.836 JLINK_HasError()
T42FC 000:577.840 JLINK_WriteReg(R0, 0x08008000)
T42FC 000:577.844 - 0.003ms returns 0
T42FC 000:577.856 JLINK_WriteReg(R1, 0x00004000)
T42FC 000:577.859 - 0.003ms returns 0
T42FC 000:577.863 JLINK_WriteReg(R2, 0x000000FF)
T42FC 000:577.866 - 0.002ms returns 0
T42FC 000:577.869 JLINK_WriteReg(R3, 0x00000000)
T42FC 000:577.872 - 0.003ms returns 0
T42FC 000:577.875 JLINK_WriteReg(R4, 0x00000000)
T42FC 000:577.878 - 0.002ms returns 0
T42FC 000:577.882 JLINK_WriteReg(R5, 0x00000000)
T42FC 000:577.885 - 0.003ms returns 0
T42FC 000:577.888 JLINK_WriteReg(R6, 0x00000000)
T42FC 000:577.891 - 0.002ms returns 0
T42FC 000:577.894 JLINK_WriteReg(R7, 0x00000000)
T42FC 000:577.897 - 0.002ms returns 0
T42FC 000:577.901 JLINK_WriteReg(R8, 0x00000000)
T42FC 000:577.903 - 0.003ms returns 0
T42FC 000:577.907 JLINK_WriteReg(R9, 0x20000180)
T42FC 000:577.910 - 0.003ms returns 0
T42FC 000:577.913 JLINK_WriteReg(R10, 0x00000000)
T42FC 000:577.916 - 0.002ms returns 0
T42FC 000:577.920 JLINK_WriteReg(R11, 0x00000000)
T42FC 000:577.923 - 0.002ms returns 0
T42FC 000:577.926 JLINK_WriteReg(R12, 0x00000000)
T42FC 000:577.929 - 0.002ms returns 0
T42FC 000:577.933 JLINK_WriteReg(R13 (SP), 0x20001000)
T42FC 000:577.936 - 0.003ms returns 0
T42FC 000:577.939 JLINK_WriteReg(R14, 0x20000001)
T42FC 000:577.945 - 0.006ms returns 0
T42FC 000:577.950 JLINK_WriteReg(R15 (PC), 0x200000C0)
T42FC 000:577.953 - 0.003ms returns 0
T42FC 000:577.957 JLINK_WriteReg(XPSR, 0x01000000)
T42FC 000:577.960 - 0.003ms returns 0
T42FC 000:577.963 JLINK_WriteReg(MSP, 0x20001000)
T42FC 000:577.966 - 0.003ms returns 0
T42FC 000:577.970 JLINK_WriteReg(PSP, 0x20001000)
T42FC 000:577.972 - 0.002ms returns 0
T42FC 000:577.976 JLINK_WriteReg(CFBP, 0x00000000)
T42FC 000:577.979 - 0.002ms returns 0
T42FC 000:577.983 JLINK_SetBPEx(Addr = 0x20000000, Type = 0xFFFFFFF2)
T42FC 000:577.986 - 0.003ms returns 0x00000005
T42FC 000:577.990 JLINK_Go()
T42FC 000:577.996   CPU_ReadMem(4 bytes @ 0xE0001000)
T42FC 000:626.448 - 48.457ms 
T42FC 000:626.514 JLINK_IsHalted()
T42FC 000:627.019 - 0.505ms returns FALSE
T42FC 000:627.044 JLINK_HasError()
T42FC 000:631.814 JLINK_IsHalted()
T42FC 000:632.399 - 0.587ms returns FALSE
T42FC 000:632.462 JLINK_HasError()
T42FC 000:634.239 JLINK_IsHalted()
T42FC 000:634.764 - 0.525ms returns FALSE
T42FC 000:634.786 JLINK_HasError()
T42FC 000:636.345 JLINK_IsHalted()
T42FC 000:637.035 - 0.686ms returns FALSE
T42FC 000:637.077 JLINK_HasError()
T42FC 000:638.366 JLINK_IsHalted()
T42FC 000:638.957 - 0.592ms returns FALSE
T42FC 000:638.999 JLINK_HasError()
T42FC 000:643.141 JLINK_IsHalted()
T42FC 000:643.749 - 0.609ms returns FALSE
T42FC 000:643.789 JLINK_HasError()
T42FC 000:645.181 JLINK_IsHalted()
T42FC 000:645.721 - 0.540ms returns FALSE
T42FC 000:645.743 JLINK_HasError()
T42FC 000:647.329 JLINK_IsHalted()
T42FC 000:647.969 - 0.638ms returns FALSE
T42FC 000:647.992 JLINK_HasError()
T42FC 000:650.066 JLINK_IsHalted()
T42FC 000:650.712 - 0.644ms returns FALSE
T42FC 000:650.744 JLINK_HasError()
T42FC 000:652.538 JLINK_IsHalted()
T42FC 000:653.091 - 0.553ms returns FALSE
T42FC 000:653.155 JLINK_HasError()
T42FC 000:655.769 JLINK_IsHalted()
T42FC 000:656.376 - 0.606ms returns FALSE
T42FC 000:656.398 JLINK_HasError()
T42FC 000:657.880 JLINK_IsHalted()
T42FC 000:658.541 - 0.660ms returns FALSE
T42FC 000:658.581 JLINK_HasError()
T42FC 000:660.438 JLINK_IsHalted()
T42FC 000:661.042 - 0.607ms returns FALSE
T42FC 000:661.062 JLINK_HasError()
T42FC 000:662.982 JLINK_IsHalted()
T42FC 000:663.681 - 0.697ms returns FALSE
T42FC 000:663.702 JLINK_HasError()
T42FC 000:665.210 JLINK_IsHalted()
T42FC 000:665.809 - 0.601ms returns FALSE
T42FC 000:665.840 JLINK_HasError()
T42FC 000:667.197 JLINK_IsHalted()
T42FC 000:667.954 - 0.757ms returns FALSE
T42FC 000:667.977 JLINK_HasError()
T42FC 000:669.709 JLINK_IsHalted()
T42FC 000:670.230 - 0.521ms returns FALSE
T42FC 000:670.256 JLINK_HasError()
T42FC 000:672.207 JLINK_IsHalted()
T42FC 000:672.771 - 0.565ms returns FALSE
T42FC 000:672.859 JLINK_HasError()
T42FC 000:674.580 JLINK_IsHalted()
T42FC 000:675.102 - 0.522ms returns FALSE
T42FC 000:675.151 JLINK_HasError()
T42FC 000:679.162 JLINK_IsHalted()
T42FC 000:679.904 - 0.745ms returns FALSE
T42FC 000:679.959 JLINK_HasError()
T42FC 000:681.143 JLINK_IsHalted()
T42FC 000:893.828 - 212.683ms returns FALSE
T42FC 000:893.942 JLINK_HasError()
T42FC 000:898.983 JLINK_IsHalted()
T42FC 000:899.674 - 0.691ms returns FALSE
T42FC 000:899.703 JLINK_HasError()
T42FC 000:901.512 JLINK_IsHalted()
T42FC 000:902.102 - 0.590ms returns FALSE
T42FC 000:902.134 JLINK_HasError()
T42FC 000:903.993 JLINK_IsHalted()
T42FC 000:904.624 - 0.629ms returns FALSE
T42FC 000:904.647 JLINK_HasError()
T42FC 000:908.678 JLINK_IsHalted()
T42FC 000:909.253 - 0.574ms returns FALSE
T42FC 000:909.332 JLINK_HasError()
T42FC 000:910.642 JLINK_IsHalted()
T42FC 000:911.262 - 0.617ms returns FALSE
T42FC 000:911.281 JLINK_HasError()
T42FC 000:913.234 JLINK_IsHalted()
T42FC 000:913.684 - 0.452ms returns FALSE
T42FC 000:913.714 JLINK_HasError()
T42FC 000:915.324 JLINK_IsHalted()
T42FC 000:915.934 - 0.609ms returns FALSE
T42FC 000:915.981 JLINK_HasError()
T42FC 000:918.028 JLINK_IsHalted()
T42FC 000:918.590 - 0.559ms returns FALSE
T42FC 000:918.629 JLINK_HasError()
T42FC 000:920.652 JLINK_IsHalted()
T42FC 000:921.285 - 0.632ms returns FALSE
T42FC 000:921.325 JLINK_HasError()
T42FC 000:922.714 JLINK_IsHalted()
T42FC 000:923.193 - 0.478ms returns FALSE
T42FC 000:923.264 JLINK_HasError()
T42FC 000:926.503 JLINK_IsHalted()
T42FC 000:927.143 - 0.642ms returns FALSE
T42FC 000:927.195 JLINK_HasError()
T42FC 000:928.400 JLINK_IsHalted()
T42FC 000:928.928 - 0.527ms returns FALSE
T42FC 000:928.974 JLINK_HasError()
T42FC 000:930.849 JLINK_IsHalted()
T42FC 000:931.326 - 0.477ms returns FALSE
T42FC 000:931.368 JLINK_HasError()
T42FC 000:933.140 JLINK_IsHalted()
T42FC 000:933.806 - 0.666ms returns FALSE
T42FC 000:933.827 JLINK_HasError()
T42FC 000:935.795 JLINK_IsHalted()
T42FC 000:936.482 - 0.687ms returns FALSE
T42FC 000:936.522 JLINK_HasError()
T42FC 000:937.676 JLINK_IsHalted()
T42FC 000:938.247 - 0.570ms returns FALSE
T42FC 000:938.322 JLINK_HasError()
T42FC 000:940.819 JLINK_IsHalted()
T42FC 000:941.441 - 0.621ms returns FALSE
T42FC 000:941.469 JLINK_HasError()
T42FC 000:943.445 JLINK_IsHalted()
T42FC 000:944.114 - 0.673ms returns FALSE
T42FC 000:944.152 JLINK_HasError()
T42FC 000:946.051 JLINK_IsHalted()
T42FC 000:946.638 - 0.589ms returns FALSE
T42FC 000:946.682 JLINK_HasError()
T42FC 000:949.257 JLINK_IsHalted()
T42FC 000:949.907 - 0.649ms returns FALSE
T42FC 000:949.971 JLINK_HasError()
T42FC 000:951.298 JLINK_IsHalted()
T42FC 000:951.954 - 0.656ms returns FALSE
T42FC 000:952.013 JLINK_HasError()
T42FC 000:954.953 JLINK_IsHalted()
T42FC 000:955.644 - 0.687ms returns FALSE
T42FC 000:955.695 JLINK_HasError()
T42FC 000:957.304 JLINK_IsHalted()
T42FC 000:957.868 - 0.563ms returns FALSE
T42FC 000:957.904 JLINK_HasError()
T42FC 000:959.490 JLINK_IsHalted()
T42FC 000:960.100 - 0.608ms returns FALSE
T42FC 000:960.135 JLINK_HasError()
T42FC 000:961.571 JLINK_IsHalted()
T42FC 000:962.341 - 0.765ms returns FALSE
T42FC 000:962.423 JLINK_HasError()
T42FC 000:964.166 JLINK_IsHalted()
T42FC 000:967.792   CPU_ReadMem(2 bytes @ 0x20000000)
T42FC 000:968.452 - 4.286ms returns TRUE
T42FC 000:968.487 JLINK_ReadReg(R15 (PC))
T42FC 000:968.494 - 0.007ms returns 0x20000000
T42FC 000:968.501 JLINK_ClrBPEx(BPHandle = 0x00000005)
T42FC 000:968.506 - 0.005ms returns 0x00
T42FC 000:968.512 JLINK_ReadReg(R0)
T42FC 000:968.517 - 0.005ms returns 0x00000000
T42FC 000:968.935 JLINK_HasError()
T42FC 000:968.950 JLINK_WriteReg(R0, 0x00000001)
T42FC 000:968.956 - 0.006ms returns 0
T42FC 000:968.962 JLINK_WriteReg(R1, 0x00004000)
T42FC 000:968.967 - 0.005ms returns 0
T42FC 000:968.973 JLINK_WriteReg(R2, 0x000000FF)
T42FC 000:968.978 - 0.005ms returns 0
T42FC 000:968.984 JLINK_WriteReg(R3, 0x00000000)
T42FC 000:968.989 - 0.004ms returns 0
T42FC 000:968.994 JLINK_WriteReg(R4, 0x00000000)
T42FC 000:968.999 - 0.004ms returns 0
T42FC 000:969.005 JLINK_WriteReg(R5, 0x00000000)
T42FC 000:969.010 - 0.005ms returns 0
T42FC 000:969.016 JLINK_WriteReg(R6, 0x00000000)
T42FC 000:969.021 - 0.004ms returns 0
T42FC 000:969.027 JLINK_WriteReg(R7, 0x00000000)
T42FC 000:969.031 - 0.004ms returns 0
T42FC 000:969.037 JLINK_WriteReg(R8, 0x00000000)
T42FC 000:969.042 - 0.005ms returns 0
T42FC 000:969.048 JLINK_WriteReg(R9, 0x20000180)
T42FC 000:969.053 - 0.004ms returns 0
T42FC 000:969.059 JLINK_WriteReg(R10, 0x00000000)
T42FC 000:969.064 - 0.005ms returns 0
T42FC 000:969.069 JLINK_WriteReg(R11, 0x00000000)
T42FC 000:969.074 - 0.004ms returns 0
T42FC 000:969.080 JLINK_WriteReg(R12, 0x00000000)
T42FC 000:969.085 - 0.004ms returns 0
T42FC 000:969.091 JLINK_WriteReg(R13 (SP), 0x20001000)
T42FC 000:969.096 - 0.005ms returns 0
T42FC 000:969.102 JLINK_WriteReg(R14, 0x20000001)
T42FC 000:969.107 - 0.005ms returns 0
T42FC 000:969.113 JLINK_WriteReg(R15 (PC), 0x20000086)
T42FC 000:969.118 - 0.005ms returns 0
T42FC 000:969.124 JLINK_WriteReg(XPSR, 0x01000000)
T42FC 000:969.128 - 0.005ms returns 0
T42FC 000:969.134 JLINK_WriteReg(MSP, 0x20001000)
T42FC 000:969.139 - 0.004ms returns 0
T42FC 000:969.145 JLINK_WriteReg(PSP, 0x20001000)
T42FC 000:969.150 - 0.004ms returns 0
T42FC 000:969.160 JLINK_WriteReg(CFBP, 0x00000000)
T42FC 000:969.223 - 0.063ms returns 0
T42FC 000:969.230 JLINK_SetBPEx(Addr = 0x20000000, Type = 0xFFFFFFF2)
T42FC 000:969.236 - 0.006ms returns 0x00000006
T42FC 000:969.242 JLINK_Go()
T42FC 000:969.257   CPU_ReadMem(4 bytes @ 0xE0001000)
T42FC 000:973.404 - 4.156ms 
T42FC 000:973.461 JLINK_IsHalted()
T42FC 000:977.147   CPU_ReadMem(2 bytes @ 0x20000000)
T42FC 000:977.700 - 4.239ms returns TRUE
T42FC 000:977.744 JLINK_ReadReg(R15 (PC))
T42FC 000:977.752 - 0.007ms returns 0x20000000
T42FC 000:977.760 JLINK_ClrBPEx(BPHandle = 0x00000006)
T42FC 000:977.767 - 0.006ms returns 0x00
T42FC 000:977.784 JLINK_ReadReg(R0)
T42FC 000:977.790 - 0.006ms returns 0x00000000
T42FC 001:038.109 JLINK_WriteMem(0x20000000, 0x184 Bytes, ...)
T42FC 001:038.121   Data:  00 BE 0A E0 0D 78 2D 06 68 40 08 24 40 00 00 D3 ...
T42FC 001:038.138   CPU_WriteMem(388 bytes @ 0x20000000)
T42FC 001:043.368 - 5.259ms returns 0x184
T42FC 001:043.463 JLINK_HasError()
T42FC 001:043.470 JLINK_WriteReg(R0, 0x08000000)
T42FC 001:043.475 - 0.004ms returns 0
T42FC 001:043.479 JLINK_WriteReg(R1, 0x017D7840)
T42FC 001:043.482 - 0.003ms returns 0
T42FC 001:043.485 JLINK_WriteReg(R2, 0x00000002)
T42FC 001:043.488 - 0.003ms returns 0
T42FC 001:043.492 JLINK_WriteReg(R3, 0x00000000)
T42FC 001:043.495 - 0.002ms returns 0
T42FC 001:043.498 JLINK_WriteReg(R4, 0x00000000)
T42FC 001:043.501 - 0.002ms returns 0
T42FC 001:043.505 JLINK_WriteReg(R5, 0x00000000)
T42FC 001:043.507 - 0.002ms returns 0
T42FC 001:043.511 JLINK_WriteReg(R6, 0x00000000)
T42FC 001:043.514 - 0.003ms returns 0
T42FC 001:043.517 JLINK_WriteReg(R7, 0x00000000)
T42FC 001:043.520 - 0.002ms returns 0
T42FC 001:043.524 JLINK_WriteReg(R8, 0x00000000)
T42FC 001:043.526 - 0.002ms returns 0
T42FC 001:043.530 JLINK_WriteReg(R9, 0x20000180)
T42FC 001:043.533 - 0.003ms returns 0
T42FC 001:043.536 JLINK_WriteReg(R10, 0x00000000)
T42FC 001:043.539 - 0.003ms returns 0
T42FC 001:043.543 JLINK_WriteReg(R11, 0x00000000)
T42FC 001:043.545 - 0.002ms returns 0
T42FC 001:043.549 JLINK_WriteReg(R12, 0x00000000)
T42FC 001:043.552 - 0.002ms returns 0
T42FC 001:043.555 JLINK_WriteReg(R13 (SP), 0x20001000)
T42FC 001:043.559 - 0.003ms returns 0
T42FC 001:043.562 JLINK_WriteReg(R14, 0x20000001)
T42FC 001:043.565 - 0.002ms returns 0
T42FC 001:043.569 JLINK_WriteReg(R15 (PC), 0x20000054)
T42FC 001:043.572 - 0.003ms returns 0
T42FC 001:043.576 JLINK_WriteReg(XPSR, 0x01000000)
T42FC 001:043.579 - 0.003ms returns 0
T42FC 001:043.582 JLINK_WriteReg(MSP, 0x20001000)
T42FC 001:043.585 - 0.002ms returns 0
T42FC 001:043.589 JLINK_WriteReg(PSP, 0x20001000)
T42FC 001:043.592 - 0.002ms returns 0
T42FC 001:043.595 JLINK_WriteReg(CFBP, 0x00000000)
T42FC 001:043.598 - 0.002ms returns 0
T42FC 001:043.602 JLINK_SetBPEx(Addr = 0x20000000, Type = 0xFFFFFFF2)
T42FC 001:043.610   CPU_ReadMem(2 bytes @ 0x20000000)
T42FC 001:044.196 - 0.593ms returns 0x00000007
T42FC 001:044.244 JLINK_Go()
T42FC 001:044.250   CPU_WriteMem(2 bytes @ 0x20000000)
T42FC 001:044.853   CPU_ReadMem(4 bytes @ 0xE0001000)
T42FC 001:048.824 - 4.579ms 
T42FC 001:048.874 JLINK_IsHalted()
T42FC 001:052.288   CPU_ReadMem(2 bytes @ 0x20000000)
T42FC 001:052.944 - 4.069ms returns TRUE
T42FC 001:053.010 JLINK_ReadReg(R15 (PC))
T42FC 001:053.016 - 0.005ms returns 0x20000000
T42FC 001:053.020 JLINK_ClrBPEx(BPHandle = 0x00000007)
T42FC 001:053.023 - 0.003ms returns 0x00
T42FC 001:053.028 JLINK_ReadReg(R0)
T42FC 001:053.031 - 0.003ms returns 0x00000000
T42FC 001:054.156 JLINK_WriteMem(0x20000184, 0x27C Bytes, ...)
T42FC 001:054.167   Data:  90 A8 00 20 61 03 00 08 6D 5A 00 08 DB 47 00 08 ...
T42FC 001:054.181   CPU_WriteMem(636 bytes @ 0x20000184)
T42FC 001:062.186 - 8.022ms returns 0x27C
T42FC 001:062.228 JLINK_WriteMem(0x20000400, 0x184 Bytes, ...)
T42FC 001:062.232   Data:  10 B5 10 BD 01 F0 F2 F8 11 46 FF F7 E7 FF 07 F0 ...
T42FC 001:062.247   CPU_WriteMem(388 bytes @ 0x20000400)
T42FC 001:067.430 - 5.200ms returns 0x184
T42FC 001:067.485 JLINK_HasError()
T42FC 001:067.491 JLINK_WriteReg(R0, 0x08000000)
T42FC 001:067.500 - 0.009ms returns 0
T42FC 001:067.503 JLINK_WriteReg(R1, 0x00000400)
T42FC 001:067.506 - 0.003ms returns 0
T42FC 001:067.510 JLINK_WriteReg(R2, 0x20000184)
T42FC 001:067.513 - 0.002ms returns 0
T42FC 001:067.516 JLINK_WriteReg(R3, 0x00000000)
T42FC 001:067.520 - 0.004ms returns 0
T42FC 001:067.529 JLINK_WriteReg(R4, 0x00000000)
T42FC 001:067.533 - 0.003ms returns 0
T42FC 001:067.536 JLINK_WriteReg(R5, 0x00000000)
T42FC 001:067.540 - 0.003ms returns 0
T42FC 001:067.543 JLINK_WriteReg(R6, 0x00000000)
T42FC 001:067.546 - 0.002ms returns 0
T42FC 001:067.549 JLINK_WriteReg(R7, 0x00000000)
T42FC 001:067.552 - 0.002ms returns 0
T42FC 001:067.556 JLINK_WriteReg(R8, 0x00000000)
T42FC 001:067.559 - 0.003ms returns 0
T42FC 001:067.562 JLINK_WriteReg(R9, 0x20000180)
T42FC 001:067.565 - 0.003ms returns 0
T42FC 001:067.569 JLINK_WriteReg(R10, 0x00000000)
T42FC 001:067.572 - 0.002ms returns 0
T42FC 001:067.575 JLINK_WriteReg(R11, 0x00000000)
T42FC 001:067.578 - 0.002ms returns 0
T42FC 001:067.581 JLINK_WriteReg(R12, 0x00000000)
T42FC 001:067.584 - 0.002ms returns 0
T42FC 001:067.588 JLINK_WriteReg(R13 (SP), 0x20001000)
T42FC 001:067.591 - 0.003ms returns 0
T42FC 001:067.595 JLINK_WriteReg(R14, 0x20000001)
T42FC 001:067.598 - 0.002ms returns 0
T42FC 001:067.601 JLINK_WriteReg(R15 (PC), 0x2000010C)
T42FC 001:067.604 - 0.003ms returns 0
T42FC 001:067.608 JLINK_WriteReg(XPSR, 0x01000000)
T42FC 001:067.611 - 0.003ms returns 0
T42FC 001:067.615 JLINK_WriteReg(MSP, 0x20001000)
T42FC 001:067.617 - 0.002ms returns 0
T42FC 001:067.621 JLINK_WriteReg(PSP, 0x20001000)
T42FC 001:067.624 - 0.003ms returns 0
T42FC 001:067.628 JLINK_WriteReg(CFBP, 0x00000000)
T42FC 001:067.630 - 0.002ms returns 0
T42FC 001:067.635 JLINK_SetBPEx(Addr = 0x20000000, Type = 0xFFFFFFF2)
T42FC 001:067.639 - 0.004ms returns 0x00000008
T42FC 001:067.643 JLINK_Go()
T42FC 001:067.653   CPU_ReadMem(4 bytes @ 0xE0001000)
T42FC 001:071.631 - 3.987ms 
T42FC 001:071.661 JLINK_IsHalted()
T42FC 001:072.205 - 0.543ms returns FALSE
T42FC 001:072.224 JLINK_HasError()
T42FC 001:083.456 JLINK_IsHalted()
T42FC 001:087.252   CPU_ReadMem(2 bytes @ 0x20000000)
T42FC 001:087.761 - 4.305ms returns TRUE
T42FC 001:087.783 JLINK_ReadReg(R15 (PC))
T42FC 001:087.787 - 0.004ms returns 0x20000000
T42FC 001:087.791 JLINK_ClrBPEx(BPHandle = 0x00000008)
T42FC 001:087.794 - 0.003ms returns 0x00
T42FC 001:087.798 JLINK_ReadReg(R0)
T42FC 001:087.801 - 0.003ms returns 0x00000000
T42FC 001:088.104 JLINK_WriteMem(0x20000184, 0x27C Bytes, ...)
T42FC 001:088.113   Data:  81 F7 01 FA 07 F6 B0 FA 80 F7 00 FA 07 F6 C7 F1 ...
T42FC 001:088.125   CPU_WriteMem(636 bytes @ 0x20000184)
T42FC 001:096.087 - 7.982ms returns 0x27C
T42FC 001:096.147 JLINK_WriteMem(0x20000400, 0x184 Bytes, ...)
T42FC 001:096.152   Data:  68 2D 09 D0 4C 2D 39 D0 6A 2D 35 D0 74 2D 35 D0 ...
T42FC 001:096.164   CPU_WriteMem(388 bytes @ 0x20000400)
T42FC 001:101.310 - 5.162ms returns 0x184
T42FC 001:101.365 JLINK_HasError()
T42FC 001:101.371 JLINK_WriteReg(R0, 0x08000400)
T42FC 001:101.376 - 0.004ms returns 0
T42FC 001:101.379 JLINK_WriteReg(R1, 0x00000400)
T42FC 001:101.382 - 0.003ms returns 0
T42FC 001:101.386 JLINK_WriteReg(R2, 0x20000184)
T42FC 001:101.389 - 0.003ms returns 0
T42FC 001:101.392 JLINK_WriteReg(R3, 0x00000000)
T42FC 001:101.395 - 0.003ms returns 0
T42FC 001:101.399 JLINK_WriteReg(R4, 0x00000000)
T42FC 001:101.402 - 0.002ms returns 0
T42FC 001:101.414 JLINK_WriteReg(R5, 0x00000000)
T42FC 001:101.417 - 0.003ms returns 0
T42FC 001:101.421 JLINK_WriteReg(R6, 0x00000000)
T42FC 001:101.424 - 0.002ms returns 0
T42FC 001:101.427 JLINK_WriteReg(R7, 0x00000000)
T42FC 001:101.430 - 0.002ms returns 0
T42FC 001:101.433 JLINK_WriteReg(R8, 0x00000000)
T42FC 001:101.437 - 0.003ms returns 0
T42FC 001:101.440 JLINK_WriteReg(R9, 0x20000180)
T42FC 001:101.443 - 0.003ms returns 0
T42FC 001:101.447 JLINK_WriteReg(R10, 0x00000000)
T42FC 001:101.450 - 0.003ms returns 0
T42FC 001:101.453 JLINK_WriteReg(R11, 0x00000000)
T42FC 001:101.459 - 0.006ms returns 0
T42FC 001:101.465 JLINK_WriteReg(R12, 0x00000000)
T42FC 001:101.468 - 0.003ms returns 0
T42FC 001:101.472 JLINK_WriteReg(R13 (SP), 0x20001000)
T42FC 001:101.475 - 0.003ms returns 0
T42FC 001:101.479 JLINK_WriteReg(R14, 0x20000001)
T42FC 001:101.482 - 0.003ms returns 0
T42FC 001:101.485 JLINK_WriteReg(R15 (PC), 0x2000010C)
T42FC 001:101.488 - 0.003ms returns 0
T42FC 001:101.492 JLINK_WriteReg(XPSR, 0x01000000)
T42FC 001:101.495 - 0.003ms returns 0
T42FC 001:101.498 JLINK_WriteReg(MSP, 0x20001000)
T42FC 001:101.501 - 0.002ms returns 0
T42FC 001:101.505 JLINK_WriteReg(PSP, 0x20001000)
T42FC 001:101.507 - 0.002ms returns 0
T42FC 001:101.511 JLINK_WriteReg(CFBP, 0x00000000)
T42FC 001:101.514 - 0.002ms returns 0
T42FC 001:101.518 JLINK_SetBPEx(Addr = 0x20000000, Type = 0xFFFFFFF2)
T42FC 001:101.522 - 0.004ms returns 0x00000009
T42FC 001:101.526 JLINK_Go()
T42FC 001:101.536   CPU_ReadMem(4 bytes @ 0xE0001000)
T42FC 001:105.590 - 4.058ms 
T42FC 001:105.641 JLINK_IsHalted()
T42FC 001:106.228 - 0.587ms returns FALSE
T42FC 001:106.266 JLINK_HasError()
T42FC 001:109.913 JLINK_IsHalted()
T42FC 001:113.300   CPU_ReadMem(2 bytes @ 0x20000000)
T42FC 001:113.950 - 4.036ms returns TRUE
T42FC 001:113.998 JLINK_ReadReg(R15 (PC))
T42FC 001:114.006 - 0.007ms returns 0x20000000
T42FC 001:114.014 JLINK_ClrBPEx(BPHandle = 0x00000009)
T42FC 001:114.020 - 0.006ms returns 0x00
T42FC 001:114.027 JLINK_ReadReg(R0)
T42FC 001:114.033 - 0.005ms returns 0x00000000
T42FC 001:114.569 JLINK_WriteMem(0x20000184, 0x27C Bytes, ...)
T42FC 001:114.576   Data:  40 1A 50 EA 05 41 0A D1 23 F0 7F 40 24 F0 7F 41 ...
T42FC 001:114.587   CPU_WriteMem(636 bytes @ 0x20000184)
T42FC 001:122.703 - 8.133ms returns 0x27C
T42FC 001:122.744 JLINK_WriteMem(0x20000400, 0x184 Bytes, ...)
T42FC 001:122.748   Data:  47 1B 00 E0 00 27 A1 69 7A 19 02 EB 09 00 08 1A ...
T42FC 001:122.757   CPU_WriteMem(388 bytes @ 0x20000400)
T42FC 001:127.954 - 5.209ms returns 0x184
T42FC 001:128.024 JLINK_HasError()
T42FC 001:128.032 JLINK_WriteReg(R0, 0x08000800)
T42FC 001:128.038 - 0.005ms returns 0
T42FC 001:128.042 JLINK_WriteReg(R1, 0x00000400)
T42FC 001:128.046 - 0.003ms returns 0
T42FC 001:128.052 JLINK_WriteReg(R2, 0x20000184)
T42FC 001:128.056 - 0.003ms returns 0
T42FC 001:128.062 JLINK_WriteReg(R3, 0x00000000)
T42FC 001:128.065 - 0.004ms returns 0
T42FC 001:128.070 JLINK_WriteReg(R4, 0x00000000)
T42FC 001:128.074 - 0.003ms returns 0
T42FC 001:128.083 JLINK_WriteReg(R5, 0x00000000)
T42FC 001:128.088 - 0.005ms returns 0
T42FC 001:128.093 JLINK_WriteReg(R6, 0x00000000)
T42FC 001:128.097 - 0.004ms returns 0
T42FC 001:128.102 JLINK_WriteReg(R7, 0x00000000)
T42FC 001:128.106 - 0.004ms returns 0
T42FC 001:128.111 JLINK_WriteReg(R8, 0x00000000)
T42FC 001:128.115 - 0.004ms returns 0
T42FC 001:128.120 JLINK_WriteReg(R9, 0x20000180)
T42FC 001:128.124 - 0.004ms returns 0
T42FC 001:128.129 JLINK_WriteReg(R10, 0x00000000)
T42FC 001:128.133 - 0.004ms returns 0
T42FC 001:128.137 JLINK_WriteReg(R11, 0x00000000)
T42FC 001:128.141 - 0.003ms returns 0
T42FC 001:128.146 JLINK_WriteReg(R12, 0x00000000)
T42FC 001:128.150 - 0.003ms returns 0
T42FC 001:128.154 JLINK_WriteReg(R13 (SP), 0x20001000)
T42FC 001:128.159 - 0.004ms returns 0
T42FC 001:128.163 JLINK_WriteReg(R14, 0x20000001)
T42FC 001:128.167 - 0.004ms returns 0
T42FC 001:128.172 JLINK_WriteReg(R15 (PC), 0x2000010C)
T42FC 001:128.176 - 0.004ms returns 0
T42FC 001:128.181 JLINK_WriteReg(XPSR, 0x01000000)
T42FC 001:128.185 - 0.004ms returns 0
T42FC 001:128.189 JLINK_WriteReg(MSP, 0x20001000)
T42FC 001:128.193 - 0.003ms returns 0
T42FC 001:128.198 JLINK_WriteReg(PSP, 0x20001000)
T42FC 001:128.202 - 0.003ms returns 0
T42FC 001:128.206 JLINK_WriteReg(CFBP, 0x00000000)
T42FC 001:128.210 - 0.003ms returns 0
T42FC 001:128.216 JLINK_SetBPEx(Addr = 0x20000000, Type = 0xFFFFFFF2)
T42FC 001:128.221 - 0.006ms returns 0x0000000A
T42FC 001:128.226 JLINK_Go()
T42FC 001:128.240   CPU_ReadMem(4 bytes @ 0xE0001000)
T42FC 001:175.213 - 46.985ms 
T42FC 001:175.265 JLINK_IsHalted()
T42FC 001:175.793 - 0.526ms returns FALSE
T42FC 001:175.818 JLINK_HasError()
T42FC 001:193.569 JLINK_IsHalted()
T42FC 001:197.189   CPU_ReadMem(2 bytes @ 0x20000000)
T42FC 001:197.802 - 4.233ms returns TRUE
T42FC 001:197.824 JLINK_ReadReg(R15 (PC))
T42FC 001:197.828 - 0.004ms returns 0x20000000
T42FC 001:197.832 JLINK_ClrBPEx(BPHandle = 0x0000000A)
T42FC 001:197.835 - 0.003ms returns 0x00
T42FC 001:197.839 JLINK_ReadReg(R0)
T42FC 001:197.842 - 0.003ms returns 0x00000000
T42FC 001:198.158 JLINK_WriteMem(0x20000184, 0x27C Bytes, ...)
T42FC 001:198.166   Data:  4A 46 1F 38 00 23 03 A9 03 90 68 46 01 F0 12 FC ...
T42FC 001:198.176   CPU_WriteMem(636 bytes @ 0x20000184)
T42FC 001:206.279 - 8.119ms returns 0x27C
T42FC 001:206.346 JLINK_WriteMem(0x20000400, 0x184 Bytes, ...)
T42FC 001:206.350   Data:  00 B1 01 20 41 19 01 EB EA 70 A1 69 38 44 08 1A ...
T42FC 001:206.360   CPU_WriteMem(388 bytes @ 0x20000400)
T42FC 001:211.578 - 5.231ms returns 0x184
T42FC 001:211.630 JLINK_HasError()
T42FC 001:211.638 JLINK_WriteReg(R0, 0x08000C00)
T42FC 001:211.642 - 0.004ms returns 0
T42FC 001:211.646 JLINK_WriteReg(R1, 0x00000400)
T42FC 001:211.649 - 0.002ms returns 0
T42FC 001:211.652 JLINK_WriteReg(R2, 0x20000184)
T42FC 001:211.655 - 0.002ms returns 0
T42FC 001:211.658 JLINK_WriteReg(R3, 0x00000000)
T42FC 001:211.661 - 0.002ms returns 0
T42FC 001:211.664 JLINK_WriteReg(R4, 0x00000000)
T42FC 001:211.667 - 0.002ms returns 0
T42FC 001:211.670 JLINK_WriteReg(R5, 0x00000000)
T42FC 001:211.673 - 0.002ms returns 0
T42FC 001:211.676 JLINK_WriteReg(R6, 0x00000000)
T42FC 001:211.680 - 0.003ms returns 0
T42FC 001:211.683 JLINK_WriteReg(R7, 0x00000000)
T42FC 001:211.686 - 0.002ms returns 0
T42FC 001:211.689 JLINK_WriteReg(R8, 0x00000000)
T42FC 001:211.692 - 0.002ms returns 0
T42FC 001:211.695 JLINK_WriteReg(R9, 0x20000180)
T42FC 001:211.698 - 0.002ms returns 0
T42FC 001:211.701 JLINK_WriteReg(R10, 0x00000000)
T42FC 001:211.704 - 0.003ms returns 0
T42FC 001:211.708 JLINK_WriteReg(R11, 0x00000000)
T42FC 001:211.710 - 0.002ms returns 0
T42FC 001:211.714 JLINK_WriteReg(R12, 0x00000000)
T42FC 001:211.716 - 0.002ms returns 0
T42FC 001:211.720 JLINK_WriteReg(R13 (SP), 0x20001000)
T42FC 001:211.723 - 0.003ms returns 0
T42FC 001:211.727 JLINK_WriteReg(R14, 0x20000001)
T42FC 001:211.729 - 0.002ms returns 0
T42FC 001:211.733 JLINK_WriteReg(R15 (PC), 0x2000010C)
T42FC 001:211.736 - 0.002ms returns 0
T42FC 001:211.739 JLINK_WriteReg(XPSR, 0x01000000)
T42FC 001:211.742 - 0.003ms returns 0
T42FC 001:211.745 JLINK_WriteReg(MSP, 0x20001000)
T42FC 001:211.748 - 0.002ms returns 0
T42FC 001:211.751 JLINK_WriteReg(PSP, 0x20001000)
T42FC 001:211.754 - 0.002ms returns 0
T42FC 001:211.757 JLINK_WriteReg(CFBP, 0x00000000)
T42FC 001:211.760 - 0.003ms returns 0
T42FC 001:211.764 JLINK_SetBPEx(Addr = 0x20000000, Type = 0xFFFFFFF2)
T42FC 001:211.768 - 0.004ms returns 0x0000000B
T42FC 001:211.772 JLINK_Go()
T42FC 001:211.782   CPU_ReadMem(4 bytes @ 0xE0001000)
T42FC 001:215.703 - 3.930ms 
T42FC 001:215.753 JLINK_IsHalted()
T42FC 001:216.233 - 0.479ms returns FALSE
T42FC 001:216.278 JLINK_HasError()
T42FC 001:222.124 JLINK_IsHalted()
T42FC 001:225.642   CPU_ReadMem(2 bytes @ 0x20000000)
T42FC 001:226.094 - 3.969ms returns TRUE
T42FC 001:226.128 JLINK_ReadReg(R15 (PC))
T42FC 001:226.132 - 0.004ms returns 0x20000000
T42FC 001:226.136 JLINK_ClrBPEx(BPHandle = 0x0000000B)
T42FC 001:226.140 - 0.003ms returns 0x00
T42FC 001:226.144 JLINK_ReadReg(R0)
T42FC 001:226.147 - 0.003ms returns 0x00000000
T42FC 001:226.469 JLINK_WriteMem(0x20000184, 0x27C Bytes, ...)
T42FC 001:226.476   Data:  04 98 00 28 0D D0 00 2A 02 DD 00 98 88 42 08 D0 ...
T42FC 001:226.485   CPU_WriteMem(636 bytes @ 0x20000184)
T42FC 001:234.524 - 8.055ms returns 0x27C
T42FC 001:234.575 JLINK_WriteMem(0x20000400, 0x184 Bytes, ...)
T42FC 001:234.580   Data:  70 47 01 21 C1 60 88 1E 70 47 42 68 5A B1 C3 68 ...
T42FC 001:234.590   CPU_WriteMem(388 bytes @ 0x20000400)
T42FC 001:282.895 - 48.319ms returns 0x184
T42FC 001:282.973 JLINK_HasError()
T42FC 001:282.990 JLINK_WriteReg(R0, 0x08001000)
T42FC 001:282.995 - 0.004ms returns 0
T42FC 001:282.999 JLINK_WriteReg(R1, 0x00000400)
T42FC 001:283.002 - 0.003ms returns 0
T42FC 001:283.005 JLINK_WriteReg(R2, 0x20000184)
T42FC 001:283.008 - 0.003ms returns 0
T42FC 001:283.012 JLINK_WriteReg(R3, 0x00000000)
T42FC 001:283.015 - 0.003ms returns 0
T42FC 001:283.018 JLINK_WriteReg(R4, 0x00000000)
T42FC 001:283.021 - 0.003ms returns 0
T42FC 001:283.025 JLINK_WriteReg(R5, 0x00000000)
T42FC 001:283.028 - 0.002ms returns 0
T42FC 001:283.031 JLINK_WriteReg(R6, 0x00000000)
T42FC 001:283.034 - 0.002ms returns 0
T42FC 001:283.037 JLINK_WriteReg(R7, 0x00000000)
T42FC 001:283.040 - 0.002ms returns 0
T42FC 001:283.044 JLINK_WriteReg(R8, 0x00000000)
T42FC 001:283.047 - 0.003ms returns 0
T42FC 001:283.050 JLINK_WriteReg(R9, 0x20000180)
T42FC 001:283.053 - 0.003ms returns 0
T42FC 001:283.057 JLINK_WriteReg(R10, 0x00000000)
T42FC 001:283.060 - 0.003ms returns 0
T42FC 001:283.064 JLINK_WriteReg(R11, 0x00000000)
T42FC 001:283.067 - 0.002ms returns 0
T42FC 001:283.070 JLINK_WriteReg(R12, 0x00000000)
T42FC 001:283.073 - 0.002ms returns 0
T42FC 001:283.077 JLINK_WriteReg(R13 (SP), 0x20001000)
T42FC 001:283.080 - 0.003ms returns 0
T42FC 001:283.083 JLINK_WriteReg(R14, 0x20000001)
T42FC 001:283.086 - 0.003ms returns 0
T42FC 001:283.090 JLINK_WriteReg(R15 (PC), 0x2000010C)
T42FC 001:283.093 - 0.003ms returns 0
T42FC 001:283.096 JLINK_WriteReg(XPSR, 0x01000000)
T42FC 001:283.099 - 0.003ms returns 0
T42FC 001:283.103 JLINK_WriteReg(MSP, 0x20001000)
T42FC 001:283.106 - 0.002ms returns 0
T42FC 001:283.109 JLINK_WriteReg(PSP, 0x20001000)
T42FC 001:283.112 - 0.002ms returns 0
T42FC 001:283.116 JLINK_WriteReg(CFBP, 0x00000000)
T42FC 001:283.119 - 0.003ms returns 0
T42FC 001:283.123 JLINK_SetBPEx(Addr = 0x20000000, Type = 0xFFFFFFF2)
